
T1674 000:118 SEGGER J-Link V5.12e Log File (0001ms, 0088ms total)
T1674 000:118 DLL Compiled: Apr 29 2016 15:03:58 (0001ms, 0088ms total)
T1674 000:118 Logging started @ 2017-11-27 15:09 (0001ms, 0088ms total)
T1674 000:119 JLINK_SetWarnOutHandler(...) (0000ms, 0088ms total)
T1674 000:119 JLINK_OpenEx(...)
Firmware: J-Link ARM-OB STM32 compiled Aug 22 2012 19:52:04
Hardware: V7.00
S/N: 20090928
Feature(s): RDI,FlashDL,FlashBP,JFlash,GDBFull  returns O.K. (0017ms, 0105ms total)
T1674 000:136 JLINK_SetErrorOutHandler(...) (0000ms, 0105ms total)
T1674 000:136 JLINK_ExecCommand("ProjectFile = "C:\Matescorp_Project\Zaigle\source\Zaigle\Device\src\zaigleDoctor\pca10040\s132\arm5_no_packs\JLinkSettings.ini"", ...)  returns 0x00 (0000ms, 0105ms total)
T1674 000:140 JLINK_ExecCommand("Device = nRF52832_xxAA", ...)Device "NRF52832_XXAA" selected.  returns 0x00 (0006ms, 0111ms total)
T1674 000:146 JLINK_ExecCommand("DisableConnectionTimeout", ...)  returns 0x01 (0000ms, 0111ms total)
T1674 000:146 JLINK_GetHardwareVersion()  returns 0x11170 (0000ms, 0111ms total)
T1674 000:146 JLINK_GetDLLVersion()  returns 51205 (0000ms, 0111ms total)
T1674 000:146 JLINK_GetFirmwareString(...) (0000ms, 0111ms total)
T1674 000:160 JLINK_GetDLLVersion()  returns 51205 (0000ms, 0111ms total)
T1674 000:160 JLINK_GetCompileDateTime() (0000ms, 0111ms total)
T1674 000:163 JLINK_GetFirmwareString(...) (0000ms, 0111ms total)
T1674 000:168 JLINK_GetHardwareVersion()  returns 0x11170 (0000ms, 0111ms total)
T1674 000:180 JLINK_TIF_Select(JLINKARM_TIF_SWD)  returns 0x00 (0004ms, 0115ms total)
T1674 000:184 JLINK_SetSpeed(20000) (0000ms, 0115ms total)
T1674 000:184 JLINK_GetId() >0x108 TIF>Found SWD-DP with ID 0x2BA01477 >0x0D TIF> >0x28 TIF> >0x0D TIF> >0x28 TIF> >0x0D TIF> >0x28 TIF> >0x0D TIF> >0x28 TIF> >0x35 TIF> >0x0D TIF> >0x28 TIF> >0x0D TIF> >0x28 TIF> >0x35 TIF> >0x35 TIF> >0x35 TIF> >0x0D TIF> >0x28 TIF> >0x0D TIF> >0x28 TIF> >0x0D TIF> >0x28 TIF> >0x35 TIF> >0x35 TIF> >0x0D TIF> >0x28 TIF> >0x35 TIF> >0x35 TIF>Found Cortex-M4 r0p1, Little endian. -- CPU_ReadMem(4 bytes @ 0xE000EDF0) -- CPU_ReadMem(4 bytes @ 0xE0002000)
FPUnit: 6 code (BP) slots and 2 literal slots -- CPU_ReadMem(4 bytes @ 0xE000EDFC) -- CPU_ReadMem(4 bytes @ 0xE0001000) -- CPU_WriteMem(4 bytes @ 0xE0001000) -- CPU_ReadMem(4 bytes @ 0xE000ED88) -- CPU_WriteMem(4 bytes @ 0xE000ED88) -- CPU_ReadMem(4 bytes @ 0xE000ED88) -- CPU_WriteMem(4 bytes @ 0xE000ED88)CoreSight components:ROMTbl 0 @ E00FF000 -- CPU_ReadMem(16 bytes @ 0xE00FF000) -- CPU_ReadMem(16 bytes @ 0xE000EFF0) -- CPU_ReadMem(16 bytes @ 0xE000EFE0)
ROMTbl 0 [0]: FFF0F000, CID: B105E00D, PID: 000BB00C SCS -- CPU_ReadMem(16 bytes @ 0xE0001FF0) -- CPU_ReadMem(16 bytes @ 0xE0001FE0)ROMTbl 0 [1]: FFF02000, CID: B105E00D, PID: 003BB002 DWT -- CPU_ReadMem(16 bytes @ 0xE0002FF0) -- CPU_ReadMem(16 bytes @ 0xE0002FE0)ROMTbl 0 [2]: FFF03000, CID: B105E00D, PID: 002BB003 FPB -- CPU_ReadMem(16 bytes @ 0xE0000FF0) -- CPU_ReadMem(16 bytes @ 0xE0000FE0)ROMTbl 0 [3]: FFF01000, CID: B105E00D, PID: 003BB001 ITM -- CPU_ReadMem(16 bytes @ 0xE00FF010)
 -- CPU_ReadMem(16 bytes @ 0xE0040FF0) -- CPU_ReadMem(16 bytes @ 0xE0040FE0)ROMTbl 0 [4]: FFF41000, CID: B105900D, PID: 000BB9A1 TPIU -- CPU_ReadMem(16 bytes @ 0xE0041FF0) -- CPU_ReadMem(16 bytes @ 0xE0041FE0)ROMTbl 0 [5]: FFF42000, CID: B105900D, PID: 000BB925 ETM >0x35 TIF>  returns 0x2BA01477 (0084ms, 0199ms total)
T1674 000:268 JLINK_GetDLLVersion()  returns 51205 (0000ms, 0199ms total)
T1674 000:268 JLINK_CORE_GetFound()  returns 0xE0000FF (0000ms, 0199ms total)
T1674 000:268 JLINK_GetDebugInfo(0x100) -- Value=0xE00FF000  returns 0x00 (0000ms, 0199ms total)
T1674 000:271 JLINK_ReadMem (0xE00FF000, 0x0020 Bytes, ...) -- CPU is running -- CPU_ReadMem(32 bytes @ 0xE00FF000) - Data: 03 F0 F0 FF 03 20 F0 FF 03 30 F0 FF 03 10 F0 FF ...  returns 0x00 (0001ms, 0200ms total)
T1674 000:272 JLINK_ReadMem (0xE000EFF0, 0x0010 Bytes, ...) -- CPU is running -- CPU_ReadMem(16 bytes @ 0xE000EFF0) - Data: 0D 00 00 00 E0 00 00 00 05 00 00 00 B1 00 00 00  returns 0x00 (0001ms, 0201ms total)
T1674 000:273 JLINK_ReadMem (0xE000EFD0, 0x0020 Bytes, ...) -- CPU is running -- CPU_ReadMem(32 bytes @ 0xE000EFD0) - Data: 04 00 00 00 00 00 00 00 00 00 00 00 00 00 00 00 ...  returns 0x00 (0002ms, 0203ms total)
T1674 000:275 JLINK_ReadMem (0xE0001FF0, 0x0010 Bytes, ...) -- CPU is running -- CPU_ReadMem(16 bytes @ 0xE0001FF0) - Data: 0D 00 00 00 E0 00 00 00 05 00 00 00 B1 00 00 00  returns 0x00 (0001ms, 0204ms total)
T1674 000:276 JLINK_ReadMem (0xE0001FD0, 0x0020 Bytes, ...) -- CPU is running -- CPU_ReadMem(32 bytes @ 0xE0001FD0) - Data: 04 00 00 00 00 00 00 00 00 00 00 00 00 00 00 00 ...  returns 0x00 (0001ms, 0205ms total)
T1674 000:277 JLINK_ReadMem (0xE0002FF0, 0x0010 Bytes, ...) -- CPU is running -- CPU_ReadMem(16 bytes @ 0xE0002FF0) - Data: 0D 00 00 00 E0 00 00 00 05 00 00 00 B1 00 00 00  returns 0x00 (0001ms, 0206ms total)
T1674 000:278 JLINK_ReadMem (0xE0002FD0, 0x0020 Bytes, ...) -- CPU is running -- CPU_ReadMem(32 bytes @ 0xE0002FD0) - Data: 04 00 00 00 00 00 00 00 00 00 00 00 00 00 00 00 ...  returns 0x00 (0001ms, 0207ms total)
T1674 000:279 JLINK_ReadMem (0xE0000FF0, 0x0010 Bytes, ...) -- CPU is running -- CPU_ReadMem(16 bytes @ 0xE0000FF0) - Data: 0D 00 00 00 E0 00 00 00 05 00 00 00 B1 00 00 00  returns 0x00 (0001ms, 0208ms total)
T1674 000:280 JLINK_ReadMem (0xE0000FD0, 0x0020 Bytes, ...) -- CPU is running -- CPU_ReadMem(32 bytes @ 0xE0000FD0) - Data: 04 00 00 00 00 00 00 00 00 00 00 00 00 00 00 00 ...  returns 0x00 (0002ms, 0210ms total)
T1674 000:282 JLINK_ReadMem (0xE0040FF0, 0x0010 Bytes, ...) -- CPU is running -- CPU_ReadMem(16 bytes @ 0xE0040FF0) - Data: 0D 00 00 00 90 00 00 00 05 00 00 00 B1 00 00 00  returns 0x00 (0001ms, 0211ms total)
T1674 000:283 JLINK_ReadMem (0xE0040FD0, 0x0020 Bytes, ...) -- CPU is running -- CPU_ReadMem(32 bytes @ 0xE0040FD0) - Data: 04 00 00 00 00 00 00 00 00 00 00 00 00 00 00 00 ...  returns 0x00 (0002ms, 0213ms total)
T1674 000:285 JLINK_ReadMem (0xE0041FF0, 0x0010 Bytes, ...) -- CPU is running -- CPU_ReadMem(16 bytes @ 0xE0041FF0) - Data: 0D 00 00 00 90 00 00 00 05 00 00 00 B1 00 00 00  returns 0x00 (0001ms, 0214ms total)
T1674 000:286 JLINK_ReadMem (0xE0041FD0, 0x0020 Bytes, ...) -- CPU is running -- CPU_ReadMem(32 bytes @ 0xE0041FD0) - Data: 04 00 00 00 00 00 00 00 00 00 00 00 00 00 00 00 ...  returns 0x00 (0001ms, 0215ms total)
T1674 000:287 JLINK_ReadMemU32(0xE000EF40, 0x0001 Items, ...) -- CPU is running -- CPU_ReadMem(4 bytes @ 0xE000EF40) - Data: 21 00 11 10  returns 0x01 (0001ms, 0216ms total)
T1674 000:288 JLINK_ReadMemU32(0xE000EF44, 0x0001 Items, ...) -- CPU is running -- CPU_ReadMem(4 bytes @ 0xE000EF44) - Data: 11 00 00 11  returns 0x01 (0001ms, 0217ms total)
T1674 000:289 JLINK_ReadMemU32(0xE000ED00, 0x0001 Items, ...) -- CPU is running -- CPU_ReadMem(4 bytes @ 0xE000ED00) - Data: 41 C2 0F 41  returns 0x01 (0001ms, 0218ms total)
T1674 000:290 JLINK_SetResetType(JLINKARM_RESET_TYPE_NORMAL)  returns JLINKARM_RESET_TYPE_NORMAL (0000ms, 0218ms total)
T1674 000:290 JLINK_Reset() -- CPU is running -- CPU_WriteMem(4 bytes @ 0xE000EDF0) -- CPU is running -- CPU_WriteMem(4 bytes @ 0xE000EDFC) >0x35 TIF> -- CPU is running -- CPU_WriteMem(4 bytes @ 0xE000ED0C) -- CPU is running -- CPU_ReadMem(4 bytes @ 0xE000EDF0) -- CPU is running -- CPU_ReadMem(4 bytes @ 0xE000EDF0) -- CPU is running -- CPU_WriteMem(4 bytes @ 0xE000EDF0) -- CPU is running -- CPU_WriteMem(4 bytes @ 0xE000EDFC) -- CPU is running -- CPU_ReadMem(4 bytes @ 0xE000EDF0)
 -- CPU_WriteMem(4 bytes @ 0xE0002000) -- CPU_ReadMem(4 bytes @ 0xE000EDFC) -- CPU_ReadMem(4 bytes @ 0xE0001000) (0024ms, 0242ms total)
T1674 000:315 JLINK_Halt()  returns 0x00 (0000ms, 0242ms total)
T1674 000:315 JLINK_IsHalted()  returns TRUE (0000ms, 0242ms total)
T1674 000:315 JLINK_ReadMemU32(0xE000EDF0, 0x0001 Items, ...) -- CPU_ReadMem(4 bytes @ 0xE000EDF0) - Data: 03 00 03 00  returns 0x01 (0002ms, 0244ms total)
T1674 000:317 JLINK_WriteU32(0xE000EDF0, 0xA05F0003) -- CPU_WriteMem(4 bytes @ 0xE000EDF0)  returns 0x00 (0001ms, 0245ms total)
T1674 000:318 JLINK_WriteU32(0xE000EDFC, 0x01000000) -- CPU_WriteMem(4 bytes @ 0xE000EDFC)  returns 0x00 (0001ms, 0246ms total)
T1674 000:349 JLINK_GetHWStatus(...)  returns 0x00 (0001ms, 0247ms total)
T1674 000:369 JLINK_GetNumBPUnits(Type = 0xFFFFFF00)  returns 0x06 (0000ms, 0247ms total)
T1674 000:369 JLINK_GetNumBPUnits(Type = 0xF0)  returns 0x2000 (0000ms, 0247ms total)
T1674 000:369 JLINK_GetNumWPUnits()  returns 0x04 (0000ms, 0247ms total)
T1674 000:384 JLINK_GetSpeed()  returns 0xFA0 (0000ms, 0247ms total)
T1674 000:391 JLINK_ReadMemU32(0xE000E004, 0x0001 Items, ...) -- CPU_ReadMem(4 bytes @ 0xE000E004) - Data: 01 00 00 00  returns 0x01 (0001ms, 0248ms total)
T1674 000:392 JLINK_ReadMemU32(0xE000E004, 0x0001 Items, ...) -- CPU_ReadMem(4 bytes @ 0xE000E004) - Data: 01 00 00 00  returns 0x01 (0001ms, 0249ms total)
T1674 000:393 JLINK_WriteMem(0xE0001000, 0x001C Bytes, ...) - Data: 01 00 00 00 00 00 00 00 00 00 00 00 00 00 00 00 ... -- CPU_WriteMem(28 bytes @ 0xE0001000)  returns 0x1C (0002ms, 0251ms total)
T1674 000:395 JLINK_ReadMem (0xE0001000, 0x001C Bytes, ...) -- CPU_ReadMem(28 bytes @ 0xE0001000) - Data: 01 00 00 40 00 00 00 00 00 00 00 00 00 00 00 00 ...  returns 0x00 (0001ms, 0252ms total)
T1674 000:396 JLINK_Halt()  returns 0x00 (0000ms, 0252ms total)
T1674 000:396 JLINK_IsHalted()  returns TRUE (0000ms, 0252ms total)
T1674 000:399 JLINK_WriteMem(0x20000000, 0x0234 Bytes, ...) - Data: 00 BE 0A E0 0D 78 2D 06 68 40 08 24 40 00 00 D3 ... -- CPU_WriteMem(564 bytes @ 0x20000000)  returns 0x234 (0008ms, 0260ms total)
T1674 000:407 JLINK_WriteReg(R0, 0x00000000)  returns 0x00 (0000ms, 0260ms total)
T1674 000:407 JLINK_WriteReg(R1, 0x03D09000)  returns 0x00 (0000ms, 0260ms total)
T1674 000:407 JLINK_WriteReg(R2, 0x00000001)  returns 0x00 (0000ms, 0260ms total)
T1674 000:407 JLINK_WriteReg(R3, 0x00000000)  returns 0x00 (0000ms, 0260ms total)
T1674 000:407 JLINK_WriteReg(R4, 0x00000000)  returns 0x00 (0000ms, 0260ms total)
T1674 000:407 JLINK_WriteReg(R5, 0x00000000)  returns 0x00 (0000ms, 0260ms total)
T1674 000:407 JLINK_WriteReg(R6, 0x00000000)  returns 0x00 (0000ms, 0260ms total)
T1674 000:407 JLINK_WriteReg(R7, 0x00000000)  returns 0x00 (0000ms, 0260ms total)
T1674 000:407 JLINK_WriteReg(R8, 0x00000000)  returns 0x00 (0000ms, 0260ms total)
T1674 000:407 JLINK_WriteReg(R9, 0x20000230)  returns 0x00 (0000ms, 0260ms total)
T1674 000:407 JLINK_WriteReg(R10, 0x00000000)  returns 0x00 (0000ms, 0260ms total)
T1674 000:407 JLINK_WriteReg(R11, 0x00000000)  returns 0x00 (0000ms, 0260ms total)
T1674 000:407 JLINK_WriteReg(R12, 0x00000000)  returns 0x00 (0000ms, 0260ms total)
T1674 000:407 JLINK_WriteReg(R13 (SP), 0x20002000)  returns 0x00 (0000ms, 0260ms total)
T1674 000:407 JLINK_WriteReg(R14, 0x20000001)  returns 0x00 (0000ms, 0260ms total)
T1674 000:407 JLINK_WriteReg(R15 (PC), 0x2000003C)  returns 0x00 (0000ms, 0260ms total)
T1674 000:407 JLINK_WriteReg(XPSR, 0x01000000)  returns 0x00 (0000ms, 0260ms total)
T1674 000:407 JLINK_WriteReg(MSP, 0x20002000)  returns 0x00 (0000ms, 0260ms total)
T1674 000:407 JLINK_WriteReg(PSP, 0x20002000)  returns 0x00 (0000ms, 0260ms total)
T1674 000:407 JLINK_WriteReg(CFBP, 0x00000000)  returns 0x00 (0000ms, 0260ms total)
T1674 000:407 JLINK_SetBPEx(Addr = 0x20000000, Type = 0xFFFFFFF2) -- CPU_ReadMem(2 bytes @ 0x20000000)  returns 0x00000001 (0001ms, 0261ms total)
T1674 000:408 JLINK_Go() -- CPU_WriteMem(2 bytes @ 0x20000000) -- CPU_ReadMem(4 bytes @ 0xE0001000) -- CPU_WriteMem(4 bytes @ 0xE0002008) -- CPU_WriteMem(4 bytes @ 0xE000200C) -- CPU_WriteMem(4 bytes @ 0xE0002010) -- CPU_WriteMem(4 bytes @ 0xE0002014) -- CPU_WriteMem(4 bytes @ 0xE0002018) -- CPU_WriteMem(4 bytes @ 0xE000201C) -- CPU_WriteMem(4 bytes @ 0xE0001004) (0010ms, 0271ms total)
T1674 000:418 JLINK_IsHalted() -- CPU_ReadMem(2 bytes @ 0x20000000)  returns TRUE (0005ms, 0276ms total)
T1674 000:423 JLINK_ReadReg(R15 (PC))  returns 0x20000000 (0000ms, 0271ms total)
T1674 000:423 JLINK_ClrBPEx(BPHandle = 0x00000001)  returns 0x00 (0000ms, 0271ms total)
T1674 000:423 JLINK_ReadReg(R0)  returns 0x00000000 (0000ms, 0271ms total)
T1674 000:423 JLINK_WriteReg(R0, 0x00023000)  returns 0x00 (0000ms, 0271ms total)
T1674 000:423 JLINK_WriteReg(R1, 0x00001000)  returns 0x00 (0000ms, 0271ms total)
T1674 000:423 JLINK_WriteReg(R2, 0x000000FF)  returns 0x00 (0000ms, 0271ms total)
T1674 000:423 JLINK_WriteReg(R3, 0x00000000)  returns 0x00 (0000ms, 0271ms total)
T1674 000:423 JLINK_WriteReg(R4, 0x00000000)  returns 0x00 (0000ms, 0271ms total)
T1674 000:423 JLINK_WriteReg(R5, 0x00000000)  returns 0x00 (0000ms, 0271ms total)
T1674 000:423 JLINK_WriteReg(R6, 0x00000000)  returns 0x00 (0000ms, 0271ms total)
T1674 000:423 JLINK_WriteReg(R7, 0x00000000)  returns 0x00 (0000ms, 0271ms total)
T1674 000:423 JLINK_WriteReg(R8, 0x00000000)  returns 0x00 (0000ms, 0271ms total)
T1674 000:423 JLINK_WriteReg(R9, 0x20000230)  returns 0x00 (0000ms, 0271ms total)
T1674 000:423 JLINK_WriteReg(R10, 0x00000000)  returns 0x00 (0000ms, 0271ms total)
T1674 000:423 JLINK_WriteReg(R11, 0x00000000)  returns 0x00 (0000ms, 0271ms total)
T1674 000:423 JLINK_WriteReg(R12, 0x00000000)  returns 0x00 (0000ms, 0271ms total)
T1674 000:423 JLINK_WriteReg(R13 (SP), 0x20002000)  returns 0x00 (0000ms, 0271ms total)
T1674 000:423 JLINK_WriteReg(R14, 0x20000001)  returns 0x00 (0000ms, 0271ms total)
T1674 000:423 JLINK_WriteReg(R15 (PC), 0x2000011A)  returns 0x00 (0000ms, 0271ms total)
T1674 000:423 JLINK_WriteReg(XPSR, 0x01000000)  returns 0x00 (0000ms, 0271ms total)
T1674 000:423 JLINK_WriteReg(MSP, 0x20002000)  returns 0x00 (0000ms, 0271ms total)
T1674 000:423 JLINK_WriteReg(PSP, 0x20002000)  returns 0x00 (0000ms, 0271ms total)
T1674 000:423 JLINK_WriteReg(CFBP, 0x00000000)  returns 0x00 (0000ms, 0271ms total)
T1674 000:423 JLINK_SetBPEx(Addr = 0x20000000, Type = 0xFFFFFFF2)  returns 0x00000002 (0000ms, 0271ms total)
T1674 000:423 JLINK_Go() -- CPU_ReadMem(4 bytes @ 0xE0001000) (0004ms, 0275ms total)
T1674 000:427 JLINK_IsHalted() -- CPU_ReadMem(2 bytes @ 0x20000000)  returns TRUE (0005ms, 0280ms total)
T1674 000:432 JLINK_ReadReg(R15 (PC))  returns 0x20000000 (0000ms, 0275ms total)
T1674 000:432 JLINK_ClrBPEx(BPHandle = 0x00000002)  returns 0x00 (0000ms, 0275ms total)
T1674 000:432 JLINK_ReadReg(R0)  returns 0x00000001 (0000ms, 0275ms total)
T1674 000:432 JLINK_WriteReg(R0, 0x00023000)  returns 0x00 (0000ms, 0275ms total)
T1674 000:432 JLINK_WriteReg(R1, 0x00001000)  returns 0x00 (0000ms, 0275ms total)
T1674 000:432 JLINK_WriteReg(R2, 0x000000FF)  returns 0x00 (0000ms, 0275ms total)
T1674 000:432 JLINK_WriteReg(R3, 0x00000000)  returns 0x00 (0000ms, 0275ms total)
T1674 000:432 JLINK_WriteReg(R4, 0x00000000)  returns 0x00 (0000ms, 0275ms total)
T1674 000:432 JLINK_WriteReg(R5, 0x00000000)  returns 0x00 (0000ms, 0275ms total)
T1674 000:432 JLINK_WriteReg(R6, 0x00000000)  returns 0x00 (0000ms, 0275ms total)
T1674 000:432 JLINK_WriteReg(R7, 0x00000000)  returns 0x00 (0000ms, 0275ms total)
T1674 000:432 JLINK_WriteReg(R8, 0x00000000)  returns 0x00 (0000ms, 0275ms total)
T1674 000:432 JLINK_WriteReg(R9, 0x20000230)  returns 0x00 (0000ms, 0275ms total)
T1674 000:432 JLINK_WriteReg(R10, 0x00000000)  returns 0x00 (0000ms, 0275ms total)
T1674 000:432 JLINK_WriteReg(R11, 0x00000000)  returns 0x00 (0000ms, 0275ms total)
T1674 000:432 JLINK_WriteReg(R12, 0x00000000)  returns 0x00 (0000ms, 0275ms total)
T1674 000:432 JLINK_WriteReg(R13 (SP), 0x20002000)  returns 0x00 (0000ms, 0275ms total)
T1674 000:432 JLINK_WriteReg(R14, 0x20000001)  returns 0x00 (0000ms, 0275ms total)
T1674 000:432 JLINK_WriteReg(R15 (PC), 0x200000D8)  returns 0x00 (0000ms, 0275ms total)
T1674 000:432 JLINK_WriteReg(XPSR, 0x01000000)  returns 0x00 (0000ms, 0275ms total)
T1674 000:432 JLINK_WriteReg(MSP, 0x20002000)  returns 0x00 (0000ms, 0275ms total)
T1674 000:432 JLINK_WriteReg(PSP, 0x20002000)  returns 0x00 (0000ms, 0275ms total)
T1674 000:432 JLINK_WriteReg(CFBP, 0x00000000)  returns 0x00 (0001ms, 0276ms total)
T1674 000:433 JLINK_SetBPEx(Addr = 0x20000000, Type = 0xFFFFFFF2)  returns 0x00000003 (0000ms, 0276ms total)
T1674 000:433 JLINK_Go() -- CPU_ReadMem(4 bytes @ 0xE0001000) (0003ms, 0279ms total)
T1674 000:436 JLINK_IsHalted() -- CPU_ReadMem(2 bytes @ 0x20000000)  returns TRUE (0006ms, 0285ms total)
T1674 000:442 JLINK_ReadReg(R15 (PC))  returns 0x20000000 (0000ms, 0279ms total)
T1674 000:442 JLINK_ClrBPEx(BPHandle = 0x00000003)  returns 0x00 (0000ms, 0279ms total)
T1674 000:442 JLINK_ReadReg(R0)  returns 0x00000000 (0000ms, 0279ms total)
T1674 000:442 JLINK_WriteReg(R0, 0x00024000)  returns 0x00 (0000ms, 0279ms total)
T1674 000:442 JLINK_WriteReg(R1, 0x00001000)  returns 0x00 (0000ms, 0279ms total)
T1674 000:442 JLINK_WriteReg(R2, 0x000000FF)  returns 0x00 (0000ms, 0279ms total)
T1674 000:442 JLINK_WriteReg(R3, 0x00000000)  returns 0x00 (0000ms, 0279ms total)
T1674 000:442 JLINK_WriteReg(R4, 0x00000000)  returns 0x00 (0000ms, 0279ms total)
T1674 000:442 JLINK_WriteReg(R5, 0x00000000)  returns 0x00 (0000ms, 0279ms total)
T1674 000:442 JLINK_WriteReg(R6, 0x00000000)  returns 0x00 (0000ms, 0279ms total)
T1674 000:442 JLINK_WriteReg(R7, 0x00000000)  returns 0x00 (0000ms, 0279ms total)
T1674 000:442 JLINK_WriteReg(R8, 0x00000000)  returns 0x00 (0000ms, 0279ms total)
T1674 000:442 JLINK_WriteReg(R9, 0x20000230)  returns 0x00 (0000ms, 0279ms total)
T1674 000:442 JLINK_WriteReg(R10, 0x00000000)  returns 0x00 (0000ms, 0279ms total)
T1674 000:442 JLINK_WriteReg(R11, 0x00000000)  returns 0x00 (0000ms, 0279ms total)
T1674 000:442 JLINK_WriteReg(R12, 0x00000000)  returns 0x00 (0000ms, 0279ms total)
T1674 000:442 JLINK_WriteReg(R13 (SP), 0x20002000)  returns 0x00 (0001ms, 0280ms total)
T1674 000:443 JLINK_WriteReg(R14, 0x20000001)  returns 0x00 (0000ms, 0280ms total)
T1674 000:443 JLINK_WriteReg(R15 (PC), 0x2000011A)  returns 0x00 (0000ms, 0280ms total)
T1674 000:443 JLINK_WriteReg(XPSR, 0x01000000)  returns 0x00 (0000ms, 0280ms total)
T1674 000:443 JLINK_WriteReg(MSP, 0x20002000)  returns 0x00 (0000ms, 0280ms total)
T1674 000:443 JLINK_WriteReg(PSP, 0x20002000)  returns 0x00 (0000ms, 0280ms total)
T1674 000:443 JLINK_WriteReg(CFBP, 0x00000000)  returns 0x00 (0000ms, 0280ms total)
T1674 000:443 JLINK_SetBPEx(Addr = 0x20000000, Type = 0xFFFFFFF2)  returns 0x00000004 (0000ms, 0280ms total)
T1674 000:443 JLINK_Go() -- CPU_ReadMem(4 bytes @ 0xE0001000) (0003ms, 0283ms total)
T1674 000:446 JLINK_IsHalted() -- CPU_ReadMem(2 bytes @ 0x20000000)  returns TRUE (0005ms, 0288ms total)
T1674 000:451 JLINK_ReadReg(R15 (PC))  returns 0x20000000 (0000ms, 0283ms total)
T1674 000:451 JLINK_ClrBPEx(BPHandle = 0x00000004)  returns 0x00 (0000ms, 0283ms total)
T1674 000:451 JLINK_ReadReg(R0)  returns 0x00000001 (0000ms, 0283ms total)
T1674 000:451 JLINK_WriteReg(R0, 0x00024000)  returns 0x00 (0000ms, 0283ms total)
T1674 000:451 JLINK_WriteReg(R1, 0x00001000)  returns 0x00 (0000ms, 0283ms total)
T1674 000:451 JLINK_WriteReg(R2, 0x000000FF)  returns 0x00 (0000ms, 0283ms total)
T1674 000:451 JLINK_WriteReg(R3, 0x00000000)  returns 0x00 (0000ms, 0283ms total)
T1674 000:451 JLINK_WriteReg(R4, 0x00000000)  returns 0x00 (0000ms, 0283ms total)
T1674 000:451 JLINK_WriteReg(R5, 0x00000000)  returns 0x00 (0000ms, 0283ms total)
T1674 000:451 JLINK_WriteReg(R6, 0x00000000)  returns 0x00 (0000ms, 0283ms total)
T1674 000:451 JLINK_WriteReg(R7, 0x00000000)  returns 0x00 (0000ms, 0283ms total)
T1674 000:451 JLINK_WriteReg(R8, 0x00000000)  returns 0x00 (0000ms, 0283ms total)
T1674 000:451 JLINK_WriteReg(R9, 0x20000230)  returns 0x00 (0000ms, 0283ms total)
T1674 000:451 JLINK_WriteReg(R10, 0x00000000)  returns 0x00 (0000ms, 0283ms total)
T1674 000:451 JLINK_WriteReg(R11, 0x00000000)  returns 0x00 (0000ms, 0283ms total)
T1674 000:451 JLINK_WriteReg(R12, 0x00000000)  returns 0x00 (0000ms, 0283ms total)
T1674 000:451 JLINK_WriteReg(R13 (SP), 0x20002000)  returns 0x00 (0000ms, 0283ms total)
T1674 000:451 JLINK_WriteReg(R14, 0x20000001)  returns 0x00 (0000ms, 0283ms total)
T1674 000:451 JLINK_WriteReg(R15 (PC), 0x200000D8)  returns 0x00 (0000ms, 0283ms total)
T1674 000:451 JLINK_WriteReg(XPSR, 0x01000000)  returns 0x00 (0000ms, 0283ms total)
T1674 000:451 JLINK_WriteReg(MSP, 0x20002000)  returns 0x00 (0000ms, 0283ms total)
T1674 000:451 JLINK_WriteReg(PSP, 0x20002000)  returns 0x00 (0000ms, 0283ms total)
T1674 000:451 JLINK_WriteReg(CFBP, 0x00000000)  returns 0x00 (0000ms, 0283ms total)
T1674 000:451 JLINK_SetBPEx(Addr = 0x20000000, Type = 0xFFFFFFF2)  returns 0x00000005 (0000ms, 0283ms total)
T1674 000:451 JLINK_Go() -- CPU_ReadMem(4 bytes @ 0xE0001000) (0004ms, 0287ms total)
T1674 000:455 JLINK_IsHalted()  returns FALSE (0001ms, 0288ms total)
T1674 000:516 JLINK_IsHalted() -- CPU_ReadMem(2 bytes @ 0x20000000)  returns TRUE (0004ms, 0291ms total)
T1674 000:520 JLINK_ReadReg(R15 (PC))  returns 0x20000000 (0000ms, 0287ms total)
T1674 000:520 JLINK_ClrBPEx(BPHandle = 0x00000005)  returns 0x00 (0000ms, 0287ms total)
T1674 000:520 JLINK_ReadReg(R0)  returns 0x00000000 (0001ms, 0288ms total)
T1674 000:521 JLINK_WriteReg(R0, 0x00025000)  returns 0x00 (0000ms, 0288ms total)
T1674 000:521 JLINK_WriteReg(R1, 0x00001000)  returns 0x00 (0000ms, 0288ms total)
T1674 000:521 JLINK_WriteReg(R2, 0x000000FF)  returns 0x00 (0000ms, 0288ms total)
T1674 000:521 JLINK_WriteReg(R3, 0x00000000)  returns 0x00 (0000ms, 0288ms total)
T1674 000:521 JLINK_WriteReg(R4, 0x00000000)  returns 0x00 (0000ms, 0288ms total)
T1674 000:521 JLINK_WriteReg(R5, 0x00000000)  returns 0x00 (0000ms, 0288ms total)
T1674 000:521 JLINK_WriteReg(R6, 0x00000000)  returns 0x00 (0000ms, 0288ms total)
T1674 000:521 JLINK_WriteReg(R7, 0x00000000)  returns 0x00 (0000ms, 0288ms total)
T1674 000:521 JLINK_WriteReg(R8, 0x00000000)  returns 0x00 (0000ms, 0288ms total)
T1674 000:521 JLINK_WriteReg(R9, 0x20000230)  returns 0x00 (0000ms, 0288ms total)
T1674 000:521 JLINK_WriteReg(R10, 0x00000000)  returns 0x00 (0000ms, 0288ms total)
T1674 000:521 JLINK_WriteReg(R11, 0x00000000)  returns 0x00 (0000ms, 0288ms total)
T1674 000:521 JLINK_WriteReg(R12, 0x00000000)  returns 0x00 (0000ms, 0288ms total)
T1674 000:521 JLINK_WriteReg(R13 (SP), 0x20002000)  returns 0x00 (0000ms, 0288ms total)
T1674 000:521 JLINK_WriteReg(R14, 0x20000001)  returns 0x00 (0000ms, 0288ms total)
T1674 000:521 JLINK_WriteReg(R15 (PC), 0x2000011A)  returns 0x00 (0000ms, 0288ms total)
T1674 000:521 JLINK_WriteReg(XPSR, 0x01000000)  returns 0x00 (0000ms, 0288ms total)
T1674 000:521 JLINK_WriteReg(MSP, 0x20002000)  returns 0x00 (0000ms, 0288ms total)
T1674 000:521 JLINK_WriteReg(PSP, 0x20002000)  returns 0x00 (0000ms, 0288ms total)
T1674 000:521 JLINK_WriteReg(CFBP, 0x00000000)  returns 0x00 (0000ms, 0288ms total)
T1674 000:521 JLINK_SetBPEx(Addr = 0x20000000, Type = 0xFFFFFFF2)  returns 0x00000006 (0000ms, 0288ms total)
T1674 000:521 JLINK_Go() -- CPU_ReadMem(4 bytes @ 0xE0001000) (0004ms, 0292ms total)
T1674 000:525 JLINK_IsHalted() -- CPU_ReadMem(2 bytes @ 0x20000000)  returns TRUE (0005ms, 0297ms total)
T1674 000:530 JLINK_ReadReg(R15 (PC))  returns 0x20000000 (0000ms, 0292ms total)
T1674 000:530 JLINK_ClrBPEx(BPHandle = 0x00000006)  returns 0x00 (0000ms, 0292ms total)
T1674 000:530 JLINK_ReadReg(R0)  returns 0x00000001 (0000ms, 0292ms total)
T1674 000:530 JLINK_WriteReg(R0, 0x00025000)  returns 0x00 (0000ms, 0292ms total)
T1674 000:530 JLINK_WriteReg(R1, 0x00001000)  returns 0x00 (0000ms, 0292ms total)
T1674 000:530 JLINK_WriteReg(R2, 0x000000FF)  returns 0x00 (0000ms, 0292ms total)
T1674 000:530 JLINK_WriteReg(R3, 0x00000000)  returns 0x00 (0000ms, 0292ms total)
T1674 000:530 JLINK_WriteReg(R4, 0x00000000)  returns 0x00 (0000ms, 0292ms total)
T1674 000:530 JLINK_WriteReg(R5, 0x00000000)  returns 0x00 (0000ms, 0292ms total)
T1674 000:530 JLINK_WriteReg(R6, 0x00000000)  returns 0x00 (0000ms, 0292ms total)
T1674 000:530 JLINK_WriteReg(R7, 0x00000000)  returns 0x00 (0000ms, 0292ms total)
T1674 000:530 JLINK_WriteReg(R8, 0x00000000)  returns 0x00 (0000ms, 0292ms total)
T1674 000:530 JLINK_WriteReg(R9, 0x20000230)  returns 0x00 (0000ms, 0292ms total)
T1674 000:530 JLINK_WriteReg(R10, 0x00000000)  returns 0x00 (0000ms, 0292ms total)
T1674 000:530 JLINK_WriteReg(R11, 0x00000000)  returns 0x00 (0000ms, 0292ms total)
T1674 000:530 JLINK_WriteReg(R12, 0x00000000)  returns 0x00 (0000ms, 0292ms total)
T1674 000:530 JLINK_WriteReg(R13 (SP), 0x20002000)  returns 0x00 (0000ms, 0292ms total)
T1674 000:530 JLINK_WriteReg(R14, 0x20000001)  returns 0x00 (0000ms, 0292ms total)
T1674 000:530 JLINK_WriteReg(R15 (PC), 0x200000D8)  returns 0x00 (0000ms, 0292ms total)
T1674 000:530 JLINK_WriteReg(XPSR, 0x01000000)  returns 0x00 (0000ms, 0292ms total)
T1674 000:530 JLINK_WriteReg(MSP, 0x20002000)  returns 0x00 (0000ms, 0292ms total)
T1674 000:530 JLINK_WriteReg(PSP, 0x20002000)  returns 0x00 (0000ms, 0292ms total)
T1674 000:530 JLINK_WriteReg(CFBP, 0x00000000)  returns 0x00 (0001ms, 0293ms total)
T1674 000:531 JLINK_SetBPEx(Addr = 0x20000000, Type = 0xFFFFFFF2)  returns 0x00000007 (0000ms, 0293ms total)
T1674 000:531 JLINK_Go() -- CPU_ReadMem(4 bytes @ 0xE0001000) (0003ms, 0296ms total)
T1674 000:534 JLINK_IsHalted() -- CPU_ReadMem(2 bytes @ 0x20000000)  returns TRUE (0005ms, 0301ms total)
T1674 000:539 JLINK_ReadReg(R15 (PC))  returns 0x20000000 (0000ms, 0296ms total)
T1674 000:539 JLINK_ClrBPEx(BPHandle = 0x00000007)  returns 0x00 (0000ms, 0296ms total)
T1674 000:539 JLINK_ReadReg(R0)  returns 0x00000000 (0000ms, 0296ms total)
T1674 000:540 JLINK_WriteReg(R0, 0x00026000)  returns 0x00 (0000ms, 0296ms total)
T1674 000:540 JLINK_WriteReg(R1, 0x00001000)  returns 0x00 (0000ms, 0296ms total)
T1674 000:540 JLINK_WriteReg(R2, 0x000000FF)  returns 0x00 (0000ms, 0296ms total)
T1674 000:540 JLINK_WriteReg(R3, 0x00000000)  returns 0x00 (0000ms, 0296ms total)
T1674 000:540 JLINK_WriteReg(R4, 0x00000000)  returns 0x00 (0000ms, 0296ms total)
T1674 000:540 JLINK_WriteReg(R5, 0x00000000)  returns 0x00 (0000ms, 0296ms total)
T1674 000:540 JLINK_WriteReg(R6, 0x00000000)  returns 0x00 (0000ms, 0296ms total)
T1674 000:540 JLINK_WriteReg(R7, 0x00000000)  returns 0x00 (0000ms, 0296ms total)
T1674 000:540 JLINK_WriteReg(R8, 0x00000000)  returns 0x00 (0000ms, 0296ms total)
T1674 000:540 JLINK_WriteReg(R9, 0x20000230)  returns 0x00 (0000ms, 0296ms total)
T1674 000:540 JLINK_WriteReg(R10, 0x00000000)  returns 0x00 (0000ms, 0296ms total)
T1674 000:540 JLINK_WriteReg(R11, 0x00000000)  returns 0x00 (0000ms, 0296ms total)
T1674 000:540 JLINK_WriteReg(R12, 0x00000000)  returns 0x00 (0000ms, 0296ms total)
T1674 000:540 JLINK_WriteReg(R13 (SP), 0x20002000)  returns 0x00 (0000ms, 0296ms total)
T1674 000:540 JLINK_WriteReg(R14, 0x20000001)  returns 0x00 (0000ms, 0296ms total)
T1674 000:540 JLINK_WriteReg(R15 (PC), 0x2000011A)  returns 0x00 (0000ms, 0296ms total)
T1674 000:540 JLINK_WriteReg(XPSR, 0x01000000)  returns 0x00 (0000ms, 0296ms total)
T1674 000:540 JLINK_WriteReg(MSP, 0x20002000)  returns 0x00 (0000ms, 0296ms total)
T1674 000:540 JLINK_WriteReg(PSP, 0x20002000)  returns 0x00 (0000ms, 0296ms total)
T1674 000:540 JLINK_WriteReg(CFBP, 0x00000000)  returns 0x00 (0000ms, 0296ms total)
T1674 000:540 JLINK_SetBPEx(Addr = 0x20000000, Type = 0xFFFFFFF2)  returns 0x00000008 (0000ms, 0296ms total)
T1674 000:540 JLINK_Go() -- CPU_ReadMem(4 bytes @ 0xE0001000) (0003ms, 0299ms total)
T1674 000:543 JLINK_IsHalted() -- CPU_ReadMem(2 bytes @ 0x20000000)  returns TRUE (0006ms, 0305ms total)
T1674 000:549 JLINK_ReadReg(R15 (PC))  returns 0x20000000 (0000ms, 0299ms total)
T1674 000:549 JLINK_ClrBPEx(BPHandle = 0x00000008)  returns 0x00 (0000ms, 0299ms total)
T1674 000:549 JLINK_ReadReg(R0)  returns 0x00000001 (0000ms, 0299ms total)
T1674 000:549 JLINK_WriteReg(R0, 0x00026000)  returns 0x00 (0000ms, 0299ms total)
T1674 000:549 JLINK_WriteReg(R1, 0x00001000)  returns 0x00 (0000ms, 0299ms total)
T1674 000:549 JLINK_WriteReg(R2, 0x000000FF)  returns 0x00 (0000ms, 0299ms total)
T1674 000:549 JLINK_WriteReg(R3, 0x00000000)  returns 0x00 (0000ms, 0299ms total)
T1674 000:549 JLINK_WriteReg(R4, 0x00000000)  returns 0x00 (0000ms, 0299ms total)
T1674 000:549 JLINK_WriteReg(R5, 0x00000000)  returns 0x00 (0000ms, 0299ms total)
T1674 000:549 JLINK_WriteReg(R6, 0x00000000)  returns 0x00 (0000ms, 0299ms total)
T1674 000:549 JLINK_WriteReg(R7, 0x00000000)  returns 0x00 (0000ms, 0299ms total)
T1674 000:549 JLINK_WriteReg(R8, 0x00000000)  returns 0x00 (0000ms, 0299ms total)
T1674 000:549 JLINK_WriteReg(R9, 0x20000230)  returns 0x00 (0000ms, 0299ms total)
T1674 000:549 JLINK_WriteReg(R10, 0x00000000)  returns 0x00 (0000ms, 0299ms total)
T1674 000:549 JLINK_WriteReg(R11, 0x00000000)  returns 0x00 (0000ms, 0299ms total)
T1674 000:549 JLINK_WriteReg(R12, 0x00000000)  returns 0x00 (0000ms, 0299ms total)
T1674 000:549 JLINK_WriteReg(R13 (SP), 0x20002000)  returns 0x00 (0000ms, 0299ms total)
T1674 000:549 JLINK_WriteReg(R14, 0x20000001)  returns 0x00 (0000ms, 0299ms total)
T1674 000:549 JLINK_WriteReg(R15 (PC), 0x200000D8)  returns 0x00 (0000ms, 0299ms total)
T1674 000:549 JLINK_WriteReg(XPSR, 0x01000000)  returns 0x00 (0000ms, 0299ms total)
T1674 000:549 JLINK_WriteReg(MSP, 0x20002000)  returns 0x00 (0000ms, 0299ms total)
T1674 000:549 JLINK_WriteReg(PSP, 0x20002000)  returns 0x00 (0000ms, 0299ms total)
T1674 000:549 JLINK_WriteReg(CFBP, 0x00000000)  returns 0x00 (0000ms, 0299ms total)
T1674 000:549 JLINK_SetBPEx(Addr = 0x20000000, Type = 0xFFFFFFF2)  returns 0x00000009 (0000ms, 0299ms total)
T1674 000:549 JLINK_Go() -- CPU_ReadMem(4 bytes @ 0xE0001000) (0004ms, 0303ms total)
T1674 000:553 JLINK_IsHalted()  returns FALSE (0001ms, 0304ms total)
T1674 000:564 JLINK_IsHalted() -- CPU_ReadMem(2 bytes @ 0x20000000)  returns TRUE (0004ms, 0307ms total)
T1674 000:568 JLINK_ReadReg(R15 (PC))  returns 0x20000000 (0000ms, 0303ms total)
T1674 000:568 JLINK_ClrBPEx(BPHandle = 0x00000009)  returns 0x00 (0000ms, 0303ms total)
T1674 000:568 JLINK_ReadReg(R0)  returns 0x00000000 (0000ms, 0303ms total)
T1674 000:569 JLINK_WriteReg(R0, 0x00000001)  returns 0x00 (0000ms, 0303ms total)
T1674 000:569 JLINK_WriteReg(R1, 0x00001000)  returns 0x00 (0000ms, 0303ms total)
T1674 000:569 JLINK_WriteReg(R2, 0x000000FF)  returns 0x00 (0000ms, 0303ms total)
T1674 000:569 JLINK_WriteReg(R3, 0x00000000)  returns 0x00 (0000ms, 0303ms total)
T1674 000:569 JLINK_WriteReg(R4, 0x00000000)  returns 0x00 (0000ms, 0303ms total)
T1674 000:569 JLINK_WriteReg(R5, 0x00000000)  returns 0x00 (0000ms, 0303ms total)
T1674 000:569 JLINK_WriteReg(R6, 0x00000000)  returns 0x00 (0000ms, 0303ms total)
T1674 000:569 JLINK_WriteReg(R7, 0x00000000)  returns 0x00 (0000ms, 0303ms total)
T1674 000:569 JLINK_WriteReg(R8, 0x00000000)  returns 0x00 (0000ms, 0303ms total)
T1674 000:569 JLINK_WriteReg(R9, 0x20000230)  returns 0x00 (0000ms, 0303ms total)
T1674 000:569 JLINK_WriteReg(R10, 0x00000000)  returns 0x00 (0000ms, 0303ms total)
T1674 000:569 JLINK_WriteReg(R11, 0x00000000)  returns 0x00 (0000ms, 0303ms total)
T1674 000:569 JLINK_WriteReg(R12, 0x00000000)  returns 0x00 (0000ms, 0303ms total)
T1674 000:569 JLINK_WriteReg(R13 (SP), 0x20002000)  returns 0x00 (0000ms, 0303ms total)
T1674 000:569 JLINK_WriteReg(R14, 0x20000001)  returns 0x00 (0000ms, 0303ms total)
T1674 000:569 JLINK_WriteReg(R15 (PC), 0x2000008E)  returns 0x00 (0000ms, 0303ms total)
T1674 000:569 JLINK_WriteReg(XPSR, 0x01000000)  returns 0x00 (0000ms, 0303ms total)
T1674 000:569 JLINK_WriteReg(MSP, 0x20002000)  returns 0x00 (0000ms, 0303ms total)
T1674 000:569 JLINK_WriteReg(PSP, 0x20002000)  returns 0x00 (0000ms, 0303ms total)
T1674 000:569 JLINK_WriteReg(CFBP, 0x00000000)  returns 0x00 (0000ms, 0303ms total)
T1674 000:569 JLINK_SetBPEx(Addr = 0x20000000, Type = 0xFFFFFFF2)  returns 0x0000000A (0000ms, 0303ms total)
T1674 000:569 JLINK_Go() -- CPU_ReadMem(4 bytes @ 0xE0001000) (0003ms, 0306ms total)
T1674 000:572 JLINK_IsHalted() -- CPU_ReadMem(2 bytes @ 0x20000000)  returns TRUE (0006ms, 0312ms total)
T1674 000:578 JLINK_ReadReg(R15 (PC))  returns 0x20000000 (0000ms, 0306ms total)
T1674 000:578 JLINK_ClrBPEx(BPHandle = 0x0000000A)  returns 0x00 (0000ms, 0306ms total)
T1674 000:578 JLINK_ReadReg(R0)  returns 0x00000000 (0000ms, 0306ms total)
T1674 000:642 JLINK_WriteMem(0x20000000, 0x0234 Bytes, ...) - Data: 00 BE 0A E0 0D 78 2D 06 68 40 08 24 40 00 00 D3 ... -- CPU_WriteMem(564 bytes @ 0x20000000)  returns 0x234 (0008ms, 0314ms total)
T1674 000:650 JLINK_WriteReg(R0, 0x00000000)  returns 0x00 (0000ms, 0314ms total)
T1674 000:650 JLINK_WriteReg(R1, 0x03D09000)  returns 0x00 (0000ms, 0314ms total)
T1674 000:650 JLINK_WriteReg(R2, 0x00000002)  returns 0x00 (0000ms, 0314ms total)
T1674 000:650 JLINK_WriteReg(R3, 0x00000000)  returns 0x00 (0000ms, 0314ms total)
T1674 000:650 JLINK_WriteReg(R4, 0x00000000)  returns 0x00 (0000ms, 0314ms total)
T1674 000:650 JLINK_WriteReg(R5, 0x00000000)  returns 0x00 (0000ms, 0314ms total)
T1674 000:650 JLINK_WriteReg(R6, 0x00000000)  returns 0x00 (0000ms, 0314ms total)
T1674 000:650 JLINK_WriteReg(R7, 0x00000000)  returns 0x00 (0000ms, 0314ms total)
T1674 000:650 JLINK_WriteReg(R8, 0x00000000)  returns 0x00 (0000ms, 0314ms total)
T1674 000:650 JLINK_WriteReg(R9, 0x20000230)  returns 0x00 (0000ms, 0314ms total)
T1674 000:650 JLINK_WriteReg(R10, 0x00000000)  returns 0x00 (0000ms, 0314ms total)
T1674 000:650 JLINK_WriteReg(R11, 0x00000000)  returns 0x00 (0000ms, 0314ms total)
T1674 000:650 JLINK_WriteReg(R12, 0x00000000)  returns 0x00 (0000ms, 0314ms total)
T1674 000:650 JLINK_WriteReg(R13 (SP), 0x20002000)  returns 0x00 (0001ms, 0315ms total)
T1674 000:651 JLINK_WriteReg(R14, 0x20000001)  returns 0x00 (0000ms, 0315ms total)
T1674 000:651 JLINK_WriteReg(R15 (PC), 0x2000003C)  returns 0x00 (0000ms, 0315ms total)
T1674 000:651 JLINK_WriteReg(XPSR, 0x01000000)  returns 0x00 (0000ms, 0315ms total)
T1674 000:651 JLINK_WriteReg(MSP, 0x20002000)  returns 0x00 (0000ms, 0315ms total)
T1674 000:651 JLINK_WriteReg(PSP, 0x20002000)  returns 0x00 (0000ms, 0315ms total)
T1674 000:651 JLINK_WriteReg(CFBP, 0x00000000)  returns 0x00 (0000ms, 0315ms total)
T1674 000:651 JLINK_SetBPEx(Addr = 0x20000000, Type = 0xFFFFFFF2) -- CPU_ReadMem(2 bytes @ 0x20000000)  returns 0x0000000B (0001ms, 0316ms total)
T1674 000:652 JLINK_Go() -- CPU_WriteMem(2 bytes @ 0x20000000) -- CPU_ReadMem(4 bytes @ 0xE0001000) (0004ms, 0320ms total)
T1674 000:656 JLINK_IsHalted() -- CPU_ReadMem(2 bytes @ 0x20000000)  returns TRUE (0007ms, 0327ms total)
T1674 000:663 JLINK_ReadReg(R15 (PC))  returns 0x20000000 (0000ms, 0320ms total)
T1674 000:663 JLINK_ClrBPEx(BPHandle = 0x0000000B)  returns 0x00 (0000ms, 0320ms total)
T1674 000:663 JLINK_ReadReg(R0)  returns 0x00000000 (0000ms, 0320ms total)
T1674 000:663 JLINK_WriteMem(0x20000234, 0x0DCC Bytes, ...) - Data: 58 4D 00 20 4D 33 02 00 55 33 02 00 57 33 02 00 ... -- CPU_WriteMem(3532 bytes @ 0x20000234)  returns 0xDCC (0041ms, 0361ms total)
T1674 000:704 JLINK_WriteMem(0x20001000, 0x0234 Bytes, ...) - Data: 40 35 01 40 0D F0 AD BA 00 C0 07 40 3C 05 00 40 ... -- CPU_WriteMem(564 bytes @ 0x20001000)  returns 0x234 (0009ms, 0370ms total)
T1674 000:713 JLINK_WriteReg(R0, 0x00023000)  returns 0x00 (0000ms, 0370ms total)
T1674 000:713 JLINK_WriteReg(R1, 0x00001000)  returns 0x00 (0000ms, 0370ms total)
T1674 000:713 JLINK_WriteReg(R2, 0x20000234)  returns 0x00 (0000ms, 0370ms total)
T1674 000:713 JLINK_WriteReg(R3, 0x00000000)  returns 0x00 (0000ms, 0370ms total)
T1674 000:713 JLINK_WriteReg(R4, 0x00000000)  returns 0x00 (0000ms, 0370ms total)
T1674 000:713 JLINK_WriteReg(R5, 0x00000000)  returns 0x00 (0000ms, 0370ms total)
T1674 000:713 JLINK_WriteReg(R6, 0x00000000)  returns 0x00 (0000ms, 0370ms total)
T1674 000:713 JLINK_WriteReg(R7, 0x00000000)  returns 0x00 (0001ms, 0371ms total)
T1674 000:714 JLINK_WriteReg(R8, 0x00000000)  returns 0x00 (0000ms, 0371ms total)
T1674 000:714 JLINK_WriteReg(R9, 0x20000230)  returns 0x00 (0000ms, 0371ms total)
T1674 000:714 JLINK_WriteReg(R10, 0x00000000)  returns 0x00 (0000ms, 0371ms total)
T1674 000:714 JLINK_WriteReg(R11, 0x00000000)  returns 0x00 (0000ms, 0371ms total)
T1674 000:714 JLINK_WriteReg(R12, 0x00000000)  returns 0x00 (0000ms, 0371ms total)
T1674 000:714 JLINK_WriteReg(R13 (SP), 0x20002000)  returns 0x00 (0000ms, 0371ms total)
T1674 000:714 JLINK_WriteReg(R14, 0x20000001)  returns 0x00 (0000ms, 0371ms total)
T1674 000:714 JLINK_WriteReg(R15 (PC), 0x20000156)  returns 0x00 (0000ms, 0371ms total)
T1674 000:714 JLINK_WriteReg(XPSR, 0x01000000)  returns 0x00 (0000ms, 0371ms total)
T1674 000:714 JLINK_WriteReg(MSP, 0x20002000)  returns 0x00 (0000ms, 0371ms total)
T1674 000:714 JLINK_WriteReg(PSP, 0x20002000)  returns 0x00 (0000ms, 0371ms total)
T1674 000:714 JLINK_WriteReg(CFBP, 0x00000000)  returns 0x00 (0000ms, 0371ms total)
T1674 000:714 JLINK_SetBPEx(Addr = 0x20000000, Type = 0xFFFFFFF2)  returns 0x0000000C (0000ms, 0371ms total)
T1674 000:714 JLINK_Go() -- CPU_ReadMem(4 bytes @ 0xE0001000) (0005ms, 0376ms total)
T1674 000:719 JLINK_IsHalted()  returns FALSE (0003ms, 0379ms total)
T1674 000:787 JLINK_IsHalted() -- CPU_ReadMem(2 bytes @ 0x20000000)  returns TRUE (0006ms, 0382ms total)
T1674 000:793 JLINK_ReadReg(R15 (PC))  returns 0x20000000 (0000ms, 0376ms total)
T1674 000:793 JLINK_ClrBPEx(BPHandle = 0x0000000C)  returns 0x00 (0000ms, 0376ms total)
T1674 000:793 JLINK_ReadReg(R0)  returns 0x00000000 (0000ms, 0376ms total)
T1674 000:793 JLINK_WriteMem(0x20000234, 0x0DCC Bytes, ...) - Data: 53 79 73 74 65 6D 20 72 65 73 65 74 00 00 00 00 ... -- CPU_WriteMem(3532 bytes @ 0x20000234)  returns 0xDCC (0042ms, 0418ms total)
T1674 000:835 JLINK_WriteMem(0x20001000, 0x0234 Bytes, ...) - Data: 62 68 08 68 90 42 0E D9 40 1E 08 60 01 78 23 8A ... -- CPU_WriteMem(564 bytes @ 0x20001000)  returns 0x234 (0009ms, 0427ms total)
T1674 000:844 JLINK_WriteReg(R0, 0x00024000)  returns 0x00 (0000ms, 0427ms total)
T1674 000:844 JLINK_WriteReg(R1, 0x00001000)  returns 0x00 (0000ms, 0427ms total)
T1674 000:844 JLINK_WriteReg(R2, 0x20000234)  returns 0x00 (0000ms, 0427ms total)
T1674 000:844 JLINK_WriteReg(R3, 0x00000000)  returns 0x00 (0000ms, 0427ms total)
T1674 000:844 JLINK_WriteReg(R4, 0x00000000)  returns 0x00 (0000ms, 0427ms total)
T1674 000:844 JLINK_WriteReg(R5, 0x00000000)  returns 0x00 (0000ms, 0427ms total)
T1674 000:844 JLINK_WriteReg(R6, 0x00000000)  returns 0x00 (0000ms, 0427ms total)
T1674 000:844 JLINK_WriteReg(R7, 0x00000000)  returns 0x00 (0000ms, 0427ms total)
T1674 000:844 JLINK_WriteReg(R8, 0x00000000)  returns 0x00 (0000ms, 0427ms total)
T1674 000:844 JLINK_WriteReg(R9, 0x20000230)  returns 0x00 (0000ms, 0427ms total)
T1674 000:844 JLINK_WriteReg(R10, 0x00000000)  returns 0x00 (0000ms, 0427ms total)
T1674 000:844 JLINK_WriteReg(R11, 0x00000000)  returns 0x00 (0000ms, 0427ms total)
T1674 000:844 JLINK_WriteReg(R12, 0x00000000)  returns 0x00 (0000ms, 0427ms total)
T1674 000:844 JLINK_WriteReg(R13 (SP), 0x20002000)  returns 0x00 (0000ms, 0427ms total)
T1674 000:844 JLINK_WriteReg(R14, 0x20000001)  returns 0x00 (0000ms, 0427ms total)
T1674 000:844 JLINK_WriteReg(R15 (PC), 0x20000156)  returns 0x00 (0000ms, 0427ms total)
T1674 000:844 JLINK_WriteReg(XPSR, 0x01000000)  returns 0x00 (0000ms, 0427ms total)
T1674 000:844 JLINK_WriteReg(MSP, 0x20002000)  returns 0x00 (0000ms, 0427ms total)
T1674 000:844 JLINK_WriteReg(PSP, 0x20002000)  returns 0x00 (0000ms, 0427ms total)
T1674 000:844 JLINK_WriteReg(CFBP, 0x00000000)  returns 0x00 (0000ms, 0427ms total)
T1674 000:844 JLINK_SetBPEx(Addr = 0x20000000, Type = 0xFFFFFFF2)  returns 0x0000000D (0001ms, 0428ms total)
T1674 000:845 JLINK_Go() -- CPU_ReadMem(4 bytes @ 0xE0001000) (0003ms, 0431ms total)
T1674 000:848 JLINK_IsHalted()  returns FALSE (0002ms, 0433ms total)
T1674 000:884 JLINK_IsHalted()  returns FALSE (0001ms, 0432ms total)
T1674 000:890 JLINK_IsHalted()  returns FALSE (0000ms, 0431ms total)
T1674 000:892 JLINK_IsHalted()  returns FALSE (0000ms, 0431ms total)
T1674 000:897 JLINK_IsHalted()  returns FALSE (0000ms, 0431ms total)
T1674 000:899 JLINK_IsHalted()  returns FALSE (0000ms, 0431ms total)
T1674 000:901 JLINK_IsHalted()  returns FALSE (0001ms, 0432ms total)
T1674 000:906 JLINK_IsHalted()  returns FALSE (0001ms, 0432ms total)
T1674 000:909 JLINK_IsHalted()  returns FALSE (0001ms, 0432ms total)
T1674 000:914 JLINK_IsHalted()  returns FALSE (0001ms, 0432ms total)
T1674 000:917 JLINK_IsHalted() -- CPU_ReadMem(2 bytes @ 0x20000000)  returns TRUE (0005ms, 0436ms total)
T1674 000:922 JLINK_ReadReg(R15 (PC))  returns 0x20000000 (0000ms, 0431ms total)
T1674 000:922 JLINK_ClrBPEx(BPHandle = 0x0000000D)  returns 0x00 (0000ms, 0431ms total)
T1674 000:922 JLINK_ReadReg(R0)  returns 0x00000000 (0000ms, 0431ms total)
T1674 000:923 JLINK_WriteMem(0x20000234, 0x0DCC Bytes, ...) - Data: 00 BF 00 BF 00 BF 00 BF 00 BF 00 BF 00 BF 00 BF ... -- CPU_WriteMem(3532 bytes @ 0x20000234)  returns 0xDCC (0041ms, 0472ms total)
T1674 000:964 JLINK_WriteMem(0x20001000, 0x0234 Bytes, ...) - Data: 01 20 70 47 40 58 00 28 00 D0 01 20 70 47 08 B5 ... -- CPU_WriteMem(564 bytes @ 0x20001000)  returns 0x234 (0009ms, 0481ms total)
T1674 000:973 JLINK_WriteReg(R0, 0x00025000)  returns 0x00 (0000ms, 0481ms total)
T1674 000:973 JLINK_WriteReg(R1, 0x00001000)  returns 0x00 (0000ms, 0481ms total)
T1674 000:973 JLINK_WriteReg(R2, 0x20000234)  returns 0x00 (0000ms, 0481ms total)
T1674 000:973 JLINK_WriteReg(R3, 0x00000000)  returns 0x00 (0000ms, 0481ms total)
T1674 000:973 JLINK_WriteReg(R4, 0x00000000)  returns 0x00 (0000ms, 0481ms total)
T1674 000:973 JLINK_WriteReg(R5, 0x00000000)  returns 0x00 (0000ms, 0481ms total)
T1674 000:973 JLINK_WriteReg(R6, 0x00000000)  returns 0x00 (0000ms, 0481ms total)
T1674 000:973 JLINK_WriteReg(R7, 0x00000000)  returns 0x00 (0000ms, 0481ms total)
T1674 000:973 JLINK_WriteReg(R8, 0x00000000)  returns 0x00 (0000ms, 0481ms total)
T1674 000:973 JLINK_WriteReg(R9, 0x20000230)  returns 0x00 (0000ms, 0481ms total)
T1674 000:973 JLINK_WriteReg(R10, 0x00000000)  returns 0x00 (0000ms, 0481ms total)
T1674 000:973 JLINK_WriteReg(R11, 0x00000000)  returns 0x00 (0000ms, 0481ms total)
T1674 000:973 JLINK_WriteReg(R12, 0x00000000)  returns 0x00 (0000ms, 0481ms total)
T1674 000:973 JLINK_WriteReg(R13 (SP), 0x20002000)  returns 0x00 (0000ms, 0481ms total)
T1674 000:973 JLINK_WriteReg(R14, 0x20000001)  returns 0x00 (0000ms, 0481ms total)
T1674 000:973 JLINK_WriteReg(R15 (PC), 0x20000156)  returns 0x00 (0000ms, 0481ms total)
T1674 000:973 JLINK_WriteReg(XPSR, 0x01000000)  returns 0x00 (0000ms, 0481ms total)
T1674 000:973 JLINK_WriteReg(MSP, 0x20002000)  returns 0x00 (0000ms, 0481ms total)
T1674 000:973 JLINK_WriteReg(PSP, 0x20002000)  returns 0x00 (0000ms, 0481ms total)
T1674 000:973 JLINK_WriteReg(CFBP, 0x00000000)  returns 0x00 (0000ms, 0481ms total)
T1674 000:973 JLINK_SetBPEx(Addr = 0x20000000, Type = 0xFFFFFFF2)  returns 0x0000000E (0000ms, 0481ms total)
T1674 000:973 JLINK_Go() -- CPU_ReadMem(4 bytes @ 0xE0001000) (0004ms, 0485ms total)
T1674 000:977 JLINK_IsHalted()  returns FALSE (0002ms, 0487ms total)
T1674 000:998 JLINK_IsHalted()  returns FALSE (0001ms, 0486ms total)
T1674 001:001 JLINK_IsHalted()  returns FALSE (0001ms, 0486ms total)
T1674 001:004 JLINK_IsHalted()  returns FALSE (0000ms, 0485ms total)
T1674 001:008 JLINK_IsHalted()  returns FALSE (0000ms, 0485ms total)
T1674 001:010 JLINK_IsHalted()  returns FALSE (0000ms, 0485ms total)
T1674 001:012 JLINK_IsHalted()  returns FALSE (0001ms, 0486ms total)
T1674 001:016 JLINK_IsHalted()  returns FALSE (0000ms, 0485ms total)
T1674 001:018 JLINK_IsHalted()  returns FALSE (0000ms, 0486ms total)
T1674 001:020 JLINK_IsHalted()  returns FALSE (0000ms, 0486ms total)
T1674 001:024 JLINK_IsHalted()  returns FALSE (0001ms, 0487ms total)
T1674 001:027 JLINK_IsHalted()  returns FALSE (0000ms, 0486ms total)
T1674 001:031 JLINK_IsHalted()  returns FALSE (0000ms, 0486ms total)
T1674 001:033 JLINK_IsHalted()  returns FALSE (0000ms, 0486ms total)
T1674 001:035 JLINK_IsHalted()  returns FALSE (0001ms, 0487ms total)
T1674 001:038 JLINK_IsHalted()  returns FALSE (0001ms, 0487ms total)
T1674 001:041 JLINK_IsHalted()  returns FALSE (0001ms, 0487ms total)
T1674 001:044 JLINK_IsHalted()  returns FALSE (0000ms, 0486ms total)
T1674 001:048 JLINK_IsHalted() -- CPU_ReadMem(2 bytes @ 0x20000000)  returns TRUE (0005ms, 0491ms total)
T1674 001:053 JLINK_ReadReg(R15 (PC))  returns 0x20000000 (0000ms, 0486ms total)
T1674 001:053 JLINK_ClrBPEx(BPHandle = 0x0000000E)  returns 0x00 (0000ms, 0486ms total)
T1674 001:053 JLINK_ReadReg(R0)  returns 0x00000000 (0000ms, 0486ms total)
T1674 001:053 JLINK_WriteMem(0x20000234, 0x0DCC Bytes, ...) - Data: 01 23 8D F8 00 30 8D F8 08 10 01 92 D0 E9 00 12 ... -- CPU_WriteMem(3532 bytes @ 0x20000234)  returns 0xDCC (0041ms, 0527ms total)
T1674 001:094 JLINK_WriteMem(0x20001000, 0x0234 Bytes, ...) - Data: 00 00 00 00 61 70 70 00 6E 72 66 5F 73 64 68 00 ... -- CPU_WriteMem(564 bytes @ 0x20001000)  returns 0x234 (0009ms, 0536ms total)
T1674 001:103 JLINK_WriteReg(R0, 0x00026000)  returns 0x00 (0000ms, 0536ms total)
T1674 001:103 JLINK_WriteReg(R1, 0x00000FBC)  returns 0x00 (0000ms, 0536ms total)
T1674 001:103 JLINK_WriteReg(R2, 0x20000234)  returns 0x00 (0000ms, 0536ms total)
T1674 001:103 JLINK_WriteReg(R3, 0x00000000)  returns 0x00 (0000ms, 0536ms total)
T1674 001:103 JLINK_WriteReg(R4, 0x00000000)  returns 0x00 (0000ms, 0536ms total)
T1674 001:103 JLINK_WriteReg(R5, 0x00000000)  returns 0x00 (0000ms, 0536ms total)
T1674 001:103 JLINK_WriteReg(R6, 0x00000000)  returns 0x00 (0000ms, 0536ms total)
T1674 001:103 JLINK_WriteReg(R7, 0x00000000)  returns 0x00 (0000ms, 0536ms total)
T1674 001:103 JLINK_WriteReg(R8, 0x00000000)  returns 0x00 (0000ms, 0536ms total)
T1674 001:103 JLINK_WriteReg(R9, 0x20000230)  returns 0x00 (0001ms, 0537ms total)
T1674 001:104 JLINK_WriteReg(R10, 0x00000000)  returns 0x00 (0000ms, 0537ms total)
T1674 001:104 JLINK_WriteReg(R11, 0x00000000)  returns 0x00 (0000ms, 0537ms total)
T1674 001:104 JLINK_WriteReg(R12, 0x00000000)  returns 0x00 (0000ms, 0537ms total)
T1674 001:104 JLINK_WriteReg(R13 (SP), 0x20002000)  returns 0x00 (0000ms, 0537ms total)
T1674 001:104 JLINK_WriteReg(R14, 0x20000001)  returns 0x00 (0000ms, 0537ms total)
T1674 001:104 JLINK_WriteReg(R15 (PC), 0x20000156)  returns 0x00 (0000ms, 0537ms total)
T1674 001:104 JLINK_WriteReg(XPSR, 0x01000000)  returns 0x00 (0000ms, 0537ms total)
T1674 001:104 JLINK_WriteReg(MSP, 0x20002000)  returns 0x00 (0000ms, 0537ms total)
T1674 001:104 JLINK_WriteReg(PSP, 0x20002000)  returns 0x00 (0000ms, 0537ms total)
T1674 001:104 JLINK_WriteReg(CFBP, 0x00000000)  returns 0x00 (0000ms, 0537ms total)
T1674 001:104 JLINK_SetBPEx(Addr = 0x20000000, Type = 0xFFFFFFF2)  returns 0x0000000F (0000ms, 0537ms total)
T1674 001:104 JLINK_Go() -- CPU_ReadMem(4 bytes @ 0xE0001000) (0004ms, 0541ms total)
T1674 001:108 JLINK_IsHalted()  returns FALSE (0003ms, 0544ms total)
T1674 001:136 JLINK_IsHalted()  returns FALSE (0001ms, 0542ms total)
T1674 001:139 JLINK_IsHalted()  returns FALSE (0001ms, 0542ms total)
T1674 001:142 JLINK_IsHalted()  returns FALSE (0001ms, 0542ms total)
T1674 001:145 JLINK_IsHalted()  returns FALSE (0000ms, 0541ms total)
T1674 001:149 JLINK_IsHalted()  returns FALSE (0000ms, 0541ms total)
T1674 001:151 JLINK_IsHalted()  returns FALSE (0000ms, 0541ms total)
T1674 001:153 JLINK_IsHalted()  returns FALSE (0000ms, 0541ms total)
T1674 001:155 JLINK_IsHalted()  returns FALSE (0001ms, 0542ms total)
T1674 001:158 JLINK_IsHalted()  returns FALSE (0000ms, 0541ms total)
T1674 001:160 JLINK_IsHalted()  returns FALSE (0001ms, 0542ms total)
T1674 001:163 JLINK_IsHalted()  returns FALSE (0001ms, 0542ms total)
T1674 001:166 JLINK_IsHalted()  returns FALSE (0000ms, 0541ms total)
T1674 001:168 JLINK_IsHalted()  returns FALSE (0001ms, 0542ms total)
T1674 001:171 JLINK_IsHalted()  returns FALSE (0000ms, 0541ms total)
T1674 001:173 JLINK_IsHalted()  returns FALSE (0000ms, 0541ms total)
T1674 001:178 JLINK_IsHalted() -- CPU_ReadMem(2 bytes @ 0x20000000)  returns TRUE (0004ms, 0545ms total)
T1674 001:182 JLINK_ReadReg(R15 (PC))  returns 0x20000000 (0000ms, 0541ms total)
T1674 001:182 JLINK_ClrBPEx(BPHandle = 0x0000000F)  returns 0x00 (0000ms, 0541ms total)
T1674 001:182 JLINK_ReadReg(R0)  returns 0x00000000 (0000ms, 0541ms total)
T1674 001:182 JLINK_WriteReg(R0, 0x00000002)  returns 0x00 (0000ms, 0541ms total)
T1674 001:182 JLINK_WriteReg(R1, 0x00000FBC)  returns 0x00 (0000ms, 0541ms total)
T1674 001:182 JLINK_WriteReg(R2, 0x20000234)  returns 0x00 (0000ms, 0541ms total)
T1674 001:182 JLINK_WriteReg(R3, 0x00000000)  returns 0x00 (0001ms, 0542ms total)
T1674 001:183 JLINK_WriteReg(R4, 0x00000000)  returns 0x00 (0000ms, 0542ms total)
T1674 001:183 JLINK_WriteReg(R5, 0x00000000)  returns 0x00 (0000ms, 0542ms total)
T1674 001:183 JLINK_WriteReg(R6, 0x00000000)  returns 0x00 (0000ms, 0542ms total)
T1674 001:183 JLINK_WriteReg(R7, 0x00000000)  returns 0x00 (0000ms, 0542ms total)
T1674 001:183 JLINK_WriteReg(R8, 0x00000000)  returns 0x00 (0000ms, 0542ms total)
T1674 001:183 JLINK_WriteReg(R9, 0x20000230)  returns 0x00 (0000ms, 0542ms total)
T1674 001:183 JLINK_WriteReg(R10, 0x00000000)  returns 0x00 (0000ms, 0542ms total)
T1674 001:183 JLINK_WriteReg(R11, 0x00000000)  returns 0x00 (0000ms, 0542ms total)
T1674 001:183 JLINK_WriteReg(R12, 0x00000000)  returns 0x00 (0000ms, 0542ms total)
T1674 001:183 JLINK_WriteReg(R13 (SP), 0x20002000)  returns 0x00 (0000ms, 0542ms total)
T1674 001:183 JLINK_WriteReg(R14, 0x20000001)  returns 0x00 (0000ms, 0542ms total)
T1674 001:183 JLINK_WriteReg(R15 (PC), 0x2000008E)  returns 0x00 (0000ms, 0542ms total)
